! Touchstone file exported from HFSS 2020.1.0
!        File:           D:/HFSS/BPF/test1.aedt
!        Generated:      9:42:07 %x4E0B%x5348  9%x6708 22, 2020
!        Design:         whole
!        Project:        test1
!        Setup:          Setup1
!        Solution:       Sweep
!
! Variables:
!        a = 3.1mm
!        b = 1.55mm
!        cavity_s = 0.2mm
!        cavity_w = 1.37mm
!        cavity_w1 = 1.21mm
!        l1 = 2.26mm
!        l2 = 2.26mm
!        l_source = 1mm
!
!Data is not renormalized
# GHZ S MA
! Terminal data exported
! Port[1] = 1
! Port[2] = 2
62                             0.999999046577264 59.6580511517746 0.00138088542783353 149.644647148459 0.00138088542783365 149.644647148459 0.999999046577263 59.6312431451443 
62.02                          0.999999064228614 59.5467355309398 0.00139138395514149 149.533293035302 0.00139138395514133 149.533293035295 0.999999064188099 59.5198876435464 
62.04                          0.999999080884812 59.4354079136465 0.00140197626611538 149.421927429302 0.00140197626611482 149.421927429295 0.999999080804743 59.4085200533509 
62.06                          0.999999096551673 59.3240678640411 0.00141266334764576 149.310549883885 0.00141266334764498 149.310549883873 0.999999096432998 59.2971399380824 
62.08                          0.999999111234831 59.2127149439989 0.00142344619870909 149.199159950377 0.00142344619870801 149.199159950358 0.999999111078485 59.1857468589892 
62.1                           0.999999124939738 59.1013487130962 0.00143432583053817 149.087757177919 0.00143432583053672 149.087757177902 0.999999124746642 59.0743403750158 
62.12                          0.999999137671663 58.9899687285816 0.00144530326679441 148.976341113509 0.00144530326679286 148.976341113476 0.999999137442725 58.9629200427739 
62.14                          0.999999149435689 58.8785745453472 0.00145637954374466 148.864911301869 0.00145637954374265 148.864911301841 0.999999149171806 58.851485416513  
62.16                          0.999999160236715 58.7671657158994 0.00146755571043751 148.753467285565 0.00146755571043534 148.75346728553  0.99999915993877 58.7400360480921 
62.18                          0.999999170079451 58.6557417903289 0.00147883282888713 148.64200860482  0.0014788328288847 148.64200860478  0.999999169748313 58.6285714869492 
62.2                           0.99999917896842 58.5443023162811 0.00149021197425571 148.53053479758  0.00149021197425312 148.530534797532 0.999999178604947 58.5170912800715 
62.22                          0.999999186907951 58.4328468389257 0.00150169423504186 148.419045399426 0.00150169423503895 148.419045399381 0.99999918651299 58.4055949719652 
62.24                          0.999999193902186 58.3213749009262 0.00151328071326958 148.307539943611 0.00151328071326641 148.307539943559 0.999999193476569 58.2940821046246 
62.26                          0.999999199955069 58.2098860424082 0.00152497252468295 148.196017960945 0.00152497252467957 148.196017960892 0.999999199499619 58.1825522175006 
62.28                          0.999999205070355 58.0983798009285 0.00153677079894186 148.084478979809 0.00153677079893811 148.084478979766 0.999999204585881 58.0710048474699 
62.3                           0.999999209251597 57.986855711443  0.00154867667982165 147.972922526141 0.00154867667981774 147.972922526085 0.999999208738896 57.9594395288027 
62.32                          0.999999212502151 57.8753133062747 0.00156069132541664 147.86134812333  0.00156069132541249 147.861348123278 0.999999211962009 57.8478557931303 
62.34                          0.999999214825175 57.7637521150808 0.00157281590834572 147.749755292266 0.00157281590834127 147.749755292207 0.999999214258367 57.7362531694124 
62.36                          0.999999216223622 57.6521716648198 0.00158505161596224 147.638143551232 0.00158505161595784 147.638143551156 0.999999215630911 57.6246311839043 
62.38                          0.999999216700243 57.5405714797178 0.00159739965056758 147.526512415918 0.00159739965056275 147.526512415861 0.99999921608238 57.5129893601231 
62.4                           0.999999216257584 57.4289510812352 0.00160986122962663 147.414861399384 0.00160986122962168 147.414861399315 0.999999215615309 57.401327218814  
62.42                          0.999999214897979 57.3173099880316 0.00162243758598926 147.303190011974 0.00162243758598421 147.303190011903 0.999999214232022 57.2896442779153 
62.44                          0.999999212623557 57.2056477159317 0.00163512996811296 147.191497761351 0.00163512996810747 147.191497761285 0.999999211934635 57.1779400525247 
62.46                          0.99999920943623 57.09396377789   0.00164793964029102 147.079784152405 0.00164793964028529 147.079784152339 0.999999208725051 57.0662140548629 
62.48                          0.999999205337699 56.982257683955  0.00166086788288362 146.968048687238 0.00166086788287792 146.968048687164 0.99999920460496 56.9544657942388 
62.5                           0.999999200329446 56.870528941233  0.00167391599255298 146.856290865129 0.00167391599254704 146.856290865053 0.999999199575832 56.8426947770127 
62.52                          0.999999194412736 56.7587770538522 0.00168708528250219 146.744510182482 0.00168708528249596 146.744510182412 0.999999193638922 56.7309005065602 
62.54                          0.999999187588609 56.6470015229249 0.00170037708271851 146.632706132799 0.00170037708271204 146.632706132732 0.99999918679526 56.6190824832348 
62.56                          0.999999179857882 56.5352018465109 0.00171379274021982 146.520878206661 0.00171379274021344 146.520878206576 0.999999179045652 56.5072402043307 
62.58                          0.999999171221148 56.4233775195784 0.00172733361930734 146.40902589162  0.00172733361930069 146.409025891543 0.999999170390681 56.3953731640442 
62.6                           0.999999161678765 56.3115280339669 0.00174100110181885 146.297148672245 0.00174100110181203 146.297148672168 0.999999160830695 56.2834808534358 
62.62                          0.999999151230862 56.199652878347  0.00175479658739035 146.185246030018 0.00175479658738339 146.185246029941 0.999999150365814 56.1715627603907 
62.64                          0.999999139877333 56.0877515381819 0.00176872149371924 146.073317443338 0.00176872149371206 146.073317443259 0.999999138995919 56.0596183695796 
62.66                          0.99999912761783 55.975823495687  0.00178277725683261 145.961362387438 0.00178277725682541 145.961362387354 0.999999126720655 55.9476471624185 
62.68                          0.999999114451768 55.8638682297893 0.00179696533136158 145.849380334367 0.00179696533135417 145.849380334287 0.999999113539426 55.8356486170283 
62.7                           0.999999100378314 55.7518852160865 0.00181128719081765 145.737370752952 0.00181128719080986 145.737370752883 0.99999909945139 55.7236222081931 
62.72                          0.99999908539639 55.6398739268059 0.00182574432787564 145.625333108761 0.00182574432786802 145.625333108676 0.999999084455459 55.6115674073196 
62.74                          0.999999069504663 55.5278338307614 0.00184033825466183 145.513266864007 0.00184033825465394 145.513266863927 0.999999068550291 55.4994836823941 
62.76                          0.99999905270155 55.4157643933116 0.00185507050304488 145.40117147757  0.00185507050303706 145.401171477476 0.999999051734292 55.3873704979397 
62.78                          0.999999034985205 55.3036650763162 0.00186994262493367 145.289046404911 0.00186994262492559 145.289046404828 0.99999903400561 55.2752273149736 
62.8                           0.999999016353524 55.1915353380922 0.00188495619257935 145.176891098061 0.00188495619257122 145.176891097977 0.999999015362129 55.1630535909627 
62.82                          0.999998996804135 55.0793746333695 0.001900112798883 145.064705005543 0.00190011279887479 145.064705005455 0.999998995801469 55.0508487797793 
62.84                          0.999998976334397 54.9671824132463 0.00191541405770851 144.952487572323 0.00191541405770012 144.952487572239 0.99999897532098 54.938612331656  
62.86                          0.999998954941396 54.8549581251429 0.00193086160419991 144.840238239812 0.00193086160419149 144.84023823972  0.99999895391774 54.8263436931401 
62.88                          0.999998932621941 54.7427012127558 0.00194645709510625 144.727956445751 0.00194645709509761 144.72795644567  0.999998931588547 54.7140423070469 
62.9                           0.999998909372557 54.630411116011  0.00196220220910993 144.615641624221 0.00196220220910133 144.615641624133 0.999998908329919 54.6017076124135 
62.92                          0.999998885189483 54.5180872710159 0.00197809864716236 144.503293205548 0.00197809864715353 144.503293205464 0.999998884138088 54.4893390444503 
62.94                          0.999998860068671 54.4057291100122 0.0019941481328238 144.390910616305 0.00199414813281498 144.390910616216 0.999998859008994 54.3769360344937 
62.96                          0.999998834005773 54.2933360613262 0.00201035241261155 144.278493279193 0.00201035241260252 144.27849327911  0.999998832938283 54.2644980099565 
62.98                          0.999998806996144 54.1809075493198 0.00202671325635115 144.16604061307  0.00202671325634207 144.166040612989 0.999998805921301 54.1520243942788 
63                             0.999998779034832 54.0684429943402 0.00204323245753695 144.053552032834 0.00204323245752769 144.053552032758 0.999998777953087 54.0395146068777 
63.02                          0.999998750116578 53.9559418126692 0.00205991183369594 143.941026949411 0.00205991183368677 143.941026949329 0.999998749028375 53.9269680630959 
63.04                          0.999998720235805 53.8434034164716 0.00207675322676074 143.828464769679 0.00207675322675159 143.82846476959  0.99999871914158 53.814384174151  
63.06                          0.999998689386616 53.7308272137429 0.00209375850344746 143.71586489641  0.00209375850343813 143.715864896323 0.999998688286797 53.7017623470823 
63.08                          0.999998657562792 53.6182126082566 0.00211092955564003 143.60322672825  0.00211092955563068 143.60322672817  0.999998656457798 53.5891019846979 
63.1                           0.999998624757777 53.5055589995101 0.00212826830078263 143.490549659654 0.00212826830077316 143.490549659574 0.999998623648021 53.4764024855215 
63.12                          0.999998590964682 53.3928657826706 0.00214577668227848 143.377833080794 0.00214577668226904 143.377833080707 0.999998589850568 53.3636632437369 
63.14                          0.999998556176273 53.2801323485195 0.00216345666989564 143.26507637753  0.00216345666988608 143.265076377451 0.999998555058198 53.2508836491333 
63.16                          0.999998520384968 53.1673580833967 0.00218131026017956 143.152278931376 0.00218131026016995 143.152278931294 0.999998519263321 53.1380630870491 
63.18                          0.99999848358283 53.0545423691438 0.00219933947687429 143.039440119389 0.00219933947686466 143.039440119307 0.999998482457993 53.0252009383146 
63.2                           0.999998445761557 52.9416845830463 0.00221754637134975 142.926559314162 0.00221754637134 142.926559314085 0.999998444633906 52.9122965791949 
63.22                          0.999998406912483 52.8287840977752 0.00223593302303802 142.813635883724 0.00223593302302816 142.813635883648 0.999998405782384 52.7993493813307 
63.24                          0.999998367026565 52.7158402813278 0.00225450153987635 142.700669191508 0.0022545015398666 142.700669191429 0.999998365894378 52.6863587116793 
63.26                          0.999998326094376 52.6028524969678 0.00227325405875888 142.587658596282 0.00227325405874932 142.587658596195 0.999998324960454 52.5733239324545 
63.28                          0.999998284106101 52.489820103164  0.00229219274599676 142.474603452062 0.00229219274598703 142.474603451981 0.999998282970791 52.4602444010652 
63.3                           0.99999824105153 52.3767424535284 0.00231131979778479 142.361503108101 0.00231131979777499 142.361503108022 0.999998239915171 52.3471194700534 
63.32                          0.999998196920046 52.2636188967538 0.00233063744067948 142.248356908773 0.00233063744066964 142.248356908698 0.99999819578297 52.2339484870315 
63.34                          0.999998151700621 52.1504487765499 0.00235014793208299 142.135164193553 0.00235014793207324 142.13516419347  0.999998150563153 52.1207307946187 
63.36                          0.999998105381807 52.0372314315789 0.00236985356073799 142.021924296901 0.00236985356072827 142.021924296822 0.999998104244266 52.0074657303758 
63.38                          0.999998057951726 51.9239661953895 0.0023897566472304 141.908636548241 0.00238975664722038 141.908636548171 0.999998056814425 51.8941526267396 
63.4                           0.999998009398066 51.8106523963513 0.00240985954450087 141.795300271884 0.00240985954449108 141.795300271804 0.99999800826131 51.780790810957  
63.42                          0.999997959708067 51.6972893575862 0.002430164638368 141.681914786929 0.00243016463835812 141.681914786854 0.999997958572155 51.6673796050164 
63.44                          0.999997908868515 51.5838763969009 0.00245067434805798 141.568479407233 0.00245067434804812 141.568479407159 0.99999790773374 51.5539183255798 
63.46                          0.999997856865732 51.4704128267169 0.00247139112674671 141.454993441326 0.00247139112673695 141.454993441247 0.999997855732381 51.4404062839128 
63.48                          0.999997803685568 51.3568979540002 0.00249231746211053 141.341456192326 0.00249231746210082 141.341456192251 0.999997802553921 51.3268427858142 
63.5                           0.999997749313388 51.2433310801898 0.00251345587688757 141.227866957879 0.00251345587687769 141.227866957808 0.999997748183719 51.2132271315442 
63.52                          0.999997693734066 51.1297115011249 0.00253480892944887 141.1142250301   0.00253480892943899 141.114225030031 0.999997692606643 51.0995586157515 
63.54                          0.999997636931971 51.0160385069711 0.00255637921438157 141.000529695477 0.00255637921437194 141.000529695397 0.999997635807056 50.9858365273998 
63.56                          0.99999757889096 50.9023113821461 0.00257816936308228 140.886780234771 0.00257816936307216 140.886780234704 0.999997577768808 50.8720601496926 
63.58                          0.999997519594363 50.7885294052432 0.00260018204435944 140.772975923029 0.00260018204434966 140.772975922955 0.999997518475225 50.7582287599969 
63.6                           0.999997459024976 50.6746918489544 0.00262241996505192 140.659116029396 0.00262241996504232 140.659116029319 0.999997457909097 50.6443416297663 
63.62                          0.999997397165048 50.5607979799923 0.00264488587065438 140.545199817098 0.00264488587064467 140.545199817027 0.999997396052665 50.5303980244625 
63.64                          0.999997333996266 50.4468470590105 0.00266758254595623 140.431226543366 0.00266758254594653 140.431226543294 0.999997332887613 50.4163972034755 
63.66                          0.999997269499748 50.332838340523  0.00269051281569344 140.317195459321 0.00269051281568379 140.317195459255 0.999997268395053 50.3023384200432 
63.68                          0.999997203656029 50.218771072822  0.00271367954521217 140.203105809922 0.0027136795452025 140.203105809853 0.999997202555512 50.1882209211687 
63.7                           0.999997136445045 50.1046444978953 0.00273708564114389 140.088956833859 0.00273708564113424 140.088956833792 0.999997135348923 50.0740439475375 
63.72                          0.999997067846123 49.9904578513415 0.00276073405209489 139.974747763484 0.00276073405208511 139.974747763425 0.999997066754608 49.9598067334329 
63.74                          0.999996997837967 49.8762103622843 0.00278462776934855 139.860477824719 0.00278462776933888 139.860477824652 0.999996996751264 49.8455085066494 
63.76                          0.999996926398644 49.7619012532854 0.0028087698275802 139.746146236957 0.00280876982757047 139.746146236896 0.999996925316953 49.7311484884065 
63.78                          0.999996853505568 49.6475297402564 0.00283316330558694 139.631752212991 0.00283316330557733 139.631752212931 0.999996852429085 49.6167258932593 
63.8                           0.999996779135489 49.5330950323683 0.00285781132703015 139.517294958922 0.00285781132702065 139.51729495886  0.999996778064403 49.5022399290087 
63.82                          0.999996703264472 49.4185963319611 0.0028827170611937 139.402773674041 0.00288271706118409 139.402773673984 0.999996702198969 49.3876897966102 
63.84                          0.999996625867888 49.3040328344507 0.00290788372375547 139.288187550774 0.00290788372374606 139.288187550714 0.999996624808147 49.2730746900809 
63.86                          0.999996546920393 49.1894037282347 0.002933314577575 139.173535774559 0.0029333145775655 139.173535774502 0.999996545866588 49.1583937964051 
63.88                          0.999996466395913 49.0747081945972 0.00295901293349511 139.058817523762 0.00295901293348581 139.058817523702 0.999996465348216 49.0436462954387 
63.9                           0.999996384267628 48.9599454076112 0.0029849821511608 138.944031969572 0.00298498215115165 138.944031969511 0.999996383226205 48.928831359812  
63.92                          0.999996300507955 48.8451145340406 0.00301122563985282 138.8291782759   0.00301122563984354 138.829178275845 0.999996299472964 48.8139481548306 
63.94                          0.999996215088527 48.7302147332394 0.00303774685933672 138.714255599304 0.00303774685932761 138.71425559925  0.999996214060126 48.6989958383749 
63.96                          0.999996127980177 48.6152451570498 0.00306454932073194 138.599263088843 0.00306454932072276 138.599263088792 0.999996126958516 48.5839735607983 
63.98                          0.99999603915292 48.5002049496996 0.00309163658739369 138.484199886015 0.00309163658738478 138.484199885959 0.999996038138146 48.4688804648236 
64                             0.999995948575929 48.385093247696  0.00311901227581539 138.369065124614 0.00311901227580663 138.369065124558 0.999995947568185 48.3537156854373 
64.02                          0.999995856217521 48.2699091797194 0.00314668005654824 138.253857930642 0.00314668005653919 138.253857930591 0.999995855216944 48.2384783497826 
64.04                          0.999995762045131 48.1546518665144 0.00317464365513591 138.138577422225 0.00317464365512698 138.138577422177 0.999995761051854 48.1231675770508 
64.06                          0.999995666025295 48.0393204207803 0.00320290685307456 138.023222709436 0.00320290685306572 138.023222709384 0.999995665039447 48.0077824783711 
64.08                          0.999995568123623 47.9239139470576 0.00323147348878412 137.907792894245 0.00323147348877542 137.907792894192 0.999995567145329 47.8923221566971 
64.1                           0.999995468304783 47.8084315416157 0.00326034745860458 137.792287070371 0.00326034745859598 137.792287070321 0.999995467334163 47.7767857066938 
64.12                          0.999995366532472 47.6928722923352 0.00328953271780994 137.676704323184 0.00328953271780144 137.676704323133 0.999995365569643 47.6611722146205 
64.14                          0.999995262769396 47.577235278592  0.00331903328164234 137.561043729568 0.00331903328163365 137.561043729526 0.99999526181447 47.5454807582139 
64.16                          0.999995156977243 47.461519571136  0.00334885322636818 137.445304357817 0.00334885322635972 137.445304357774 0.999995156030328 47.4297104065671 
64.18                          0.99999504911666 47.3457242319704 0.00337899669035427 137.329485267504 0.00337899669034604 137.329485267454 0.999995048177861 47.3138602200081 
